time v(/en) v(/clk) v(/rstb) v(/serial_out) v(/net97) v(/en_out)
0.0 1.78866325925053e-23 1.43093060739764e-22 1.43093060739764e-22 1.18800096144219 1.57998904340695e-08 1.57998904607766e-08
1.5e-06 1.78915243006707e-23 1.43075502343293e-22 1.56929636410623e-22 1.18800079407069 1.58009815621326e-08 1.58009815802082e-08
4.5e-06 1.77782458039097e-23 1.42035235689841e-22 1.71458621191105e-22 1.18800046046615 1.5800600563195e-08 1.58006005923347e-08
1.05e-05 1.78494953545484e-23 1.4272794555131e-22 1.94208372528043e-22 1.18799979552035 1.58001037846501e-08 1.58001038125533e-08
2.25e-05 1.78811540027331e-23 1.43042557212039e-22 2.03550919700525e-22 1.18799847911755 1.57998798640912e-08 1.57998798914235e-08
3.625e-05 1.78807413027564e-23 1.43032586928443e-22 2.01211721646978e-22 1.18799699260486 1.57998875662641e-08 1.57998875936239e-08
5e-05 1.78810559170735e-23 1.43041668118544e-22 1.99198462507694e-22 1.1879955291055 1.57998866134039e-08 1.57998866407526e-08
5.00000049768664e-05 7.80691014660672e-14 6.77785511316808e-13 2.4884166395832e-06 1.18799564091667 1.74682858758635e-07 9.51555293127035e-08
5.0000008793628e-05 -7.0080675934238e-15 -1.21449696963819e-13 4.39679609075465e-06 1.18799567976771 2.23611693382298e-07 1.26256065270113e-07
5.00000146878316e-05 1.85710991460161e-14 1.11037390014324e-13 7.34389830991586e-06 1.18799568539924 2.14254329160204e-07 1.37173179021436e-07
5.0000020136016e-05 -6.54263593866706e-16 -6.92064507569408e-14 1.00679902077811e-05 1.18799569062665 2.07609649617872e-07 1.44110473019343e-07
5.0000024041931e-05 3.42136562505767e-15 -3.54277024359691e-14 1.20209478093216e-05 1.18799568364651 1.89502258144502e-07 1.4141447929785e-07
5.0000029566796e-05 -1.78380642424057e-15 -8.31119304516078e-14 1.47833802191562e-05 1.1879956699378 1.64169025026975e-07 1.34630706698156e-07
5.00000347200644e-05 -2.77542691157329e-15 -9.66859591589603e-14 1.73600144307042e-05 1.1879956500462 1.3687937240568e-07 1.24007825558376e-07
5.00000412909301e-05 -4.57596133394791e-15 -1.12244793772955e-13 2.06454472373919e-05 1.18799561941631 1.04178022269452e-07 1.08268628983587e-07
5.00000481515114e-05 -4.73181560770399e-15 -1.18071431345179e-13 2.4075737898741e-05 1.18799558357767 7.49197303328588e-08 9.13930514578237e-08
5.00000566605606e-05 -3.30866843608515e-15 -1.03496396344113e-13 2.83302624946458e-05 1.18799554002175 5.09635965367973e-08 7.41338622254879e-08
5.00000682473317e-05 5.90505400838652e-16 -7.14918978484834e-14 3.41236481293535e-05 1.18799549237948 4.3545553204081e-08 6.23467504706408e-08
5.00000797650736e-05 5.96231073985366e-15 -1.89784577514926e-14 3.98825191048303e-05 1.18799546713617 6.3375367028184e-08 6.66484873573234e-08
5.00000884644346e-05 9.59642657503957e-15 1.24980073647693e-14 4.4232199659337e-05 1.18799546515294 9.16210261124694e-08 7.9683852361457e-08
5.00000962855385e-05 1.26059886756469e-14 4.44489341692229e-14 4.81427516192781e-05 1.18799547517854 1.21872780175339e-07 9.65239398682972e-08
5.00001036478469e-05 1.41502731299458e-14 5.74186331371705e-14 5.18239058701656e-05 1.18799549267099 1.50500145598575e-07 1.14588207871389e-07
5.00001113264992e-05 1.52180822731686e-14 7.21033077477211e-14 5.56632319910779e-05 1.18799551625948 1.76904829374288e-07 1.33382945072702e-07
5.00001197452756e-05 1.46666610319945e-14 6.64372079472634e-14 5.98726202379345e-05 1.18799554434873 1.98393997892074e-07 1.51367909697135e-07
5.00001299392231e-05 1.31190685513067e-14 5.7749241442232e-14 6.49695939325864e-05 1.18799557545652 2.10938865596371e-07 1.66460866900685e-07
5.00001385831951e-05 1.04783997630433e-14 3.25762413120171e-14 6.92915798838898e-05 1.18799559528383 2.09408635784928e-07 1.72085137208261e-07
5.00001508671676e-05 6.91721535061785e-15 4.81877158896539e-15 7.54335661063798e-05 1.18799560833305 1.91265899841883e-07 1.68700211326398e-07
5.00001600326905e-05 4.06207972462108e-15 -2.33086706767711e-14 8.00163275142182e-05 1.18799560592047 1.69385380985553e-07 1.58926441519702e-07
5.00001691015411e-05 2.4171764499732e-15 -3.50664282408131e-14 8.45507527862112e-05 1.18799559474501 1.45527111010048e-07 1.45607257896282e-07
5.0000177687822e-05 1.19394353630076e-15 -4.90295932703977e-14 8.88438932339364e-05 1.18799557861568 1.24635779860502e-07 1.31970054792162e-07
5.000018705623e-05 1.36841880185832e-15 -4.46650617129841e-14 9.35280972639274e-05 1.18799555847427 1.07205670946388e-07 1.18506458906376e-07
5.000019795583e-05 2.13246136419167e-15 -4.06835520369233e-14 9.89778972710891e-05 1.18799553666994 9.68114912531444e-08 1.07407196482761e-07
5.00002104624585e-05 4.48882440701346e-15 -1.62644035680373e-14 0.000105231211523314 1.18799551953392 9.86614671217791e-08 1.02766246088518e-07
5.00002241757817e-05 6.77707097397111e-15 2.25442355751365e-15 0.000112087873187721 1.18799551437926 1.13927982694022e-07 1.07321050032589e-07
5.00002349943943e-05 8.61331580971229e-15 2.2568426347386e-14 0.00011749717948394 1.18799552028952 1.31084108983622e-07 1.16087661767761e-07
5.00002453445097e-05 9.17084339608881e-15 2.5670912963231e-14 0.000122672237206363 1.18799553188173 1.47063851232924e-07 1.26122199493281e-07
5.00002556828286e-05 9.44764548887252e-15 3.19530650606219e-14 0.000127841396642445 1.18799554603461 1.59138028708614e-07 1.35337278065522e-07
5.00002677668042e-05 8.36049188597768e-15 2.01697429371231e-14 0.000133883384455779 1.18799556134866 1.65584045138121e-07 1.42576790209023e-07
5.00002866288923e-05 6.40046146029017e-15 6.11057720836607e-15 0.000143314428453933 1.18799557416585 1.59336640043242e-07 1.4376733057939e-07
5.00003011817425e-05 4.50137748390876e-15 -1.38045571731406e-14 0.000150590853527305 1.18799557241534 1.45204342982449e-07 1.37289569043532e-07
5.0000314075365e-05 3.92447442511598e-15 -1.63432471000191e-14 0.000157037664757656 1.18799556380404 1.31597585204864e-07 1.28947839296771e-07
5.00003259875887e-05 3.60460467317404e-15 -2.23123656699104e-14 0.000162993776627641 1.18799555316982 1.22140263159743e-07 1.21712241584147e-07
5.00003393300544e-05 4.46998328919681e-15 -1.18369921654663e-14 0.0001696650094778 1.18799554236706 1.17779380134831e-07 1.16527454897033e-07
5.00003598041034e-05 5.76177692591611e-15 -2.92956227917899e-15 0.000179902034029154 1.18799553480491 1.23272590976181e-07 1.16377926366029e-07
5.00003762612968e-05 7.06420721751014e-15 1.20442311602178e-14 0.000188130630728115 1.18799553798698 1.34004282596847e-07 1.21715271063566e-07
5.0000390976912e-05 7.14776976136485e-15 1.04105007120924e-14 0.000195488438323921 1.18799554566409 1.43002288452592e-07 1.27730102651762e-07
5.00004051023313e-05 7.12207906929049e-15 1.33915599447985e-14 0.000202551147968683 1.18799555371625 1.47618972369442e-07 1.32060390492509e-07
5.00004224594436e-05 6.03978755462966e-15 1.05353268196387e-15 0.000211229704085336 1.18799555999735 1.46479778488652e-07 1.33469525267361e-07
5.00004379199711e-05 5.49567248544021e-15 -1.02406222272704e-15 0.00021895996784216 1.18799556038707 1.40684747546556e-07 1.31162150298098e-07
5.0000455227824e-05 4.74215185087222e-15 -1.08105349730874e-14 0.000227613894283022 1.18799555584564 1.32989795985573e-07 1.26559850591918e-07
5.0000471030253e-05 5.03704113200873e-15 -5.51066885040907e-15 0.000235515108808361 1.18799554982516 1.28268910015484e-07 1.22738758117247e-07
5.00004892802221e-05 5.28978706821319e-15 -6.15245105893479e-15 0.000244640093349087 1.18799554466872 1.2779123788294e-07 1.20933482668551e-07
5.00005071372766e-05 6.14422197105638e-15 4.43485307392102e-15 0.000253568620605536 1.18799554373051 1.3163987017759e-07 1.22211470050452e-07
5.00005281855082e-05 6.27750483612961e-15 3.03794064163288e-15 0.00026409273643196 1.18799554728283 1.37551065339009e-07 1.25717529439153e-07
5.00005466822678e-05 6.42024449291585e-15 7.32947965105867e-15 0.00027334111620516 1.18799555183738 1.40543914957277e-07 1.28332882069154e-07
5.00005682446754e-05 5.71825353941653e-15 -1.71641412576608e-15 0.000284122319986179 1.18799555487596 1.3960452721572e-07 1.28861254832631e-07
5.00005879166293e-05 5.57837161175788e-15 -2.23087858951153e-16 0.000293958296924588 1.18799555415676 1.36003884511077e-07 1.27143388461278e-07
5.00006110526783e-05 5.22864021373078e-15 -6.31394561278475e-15 0.000305526321467377 1.18799555066837 1.32294728661565e-07 1.24531905740568e-07
5.00006330149165e-05 5.72375967053723e-15 8.78702349457851e-16 0.00031650744054751 1.18799554778091 1.31759123265185e-07 1.23416944305655e-07
5.00006646145297e-05 5.87769319998375e-15 -4.73633698754164e-16 0.000332307247171519 1.187995547923 1.34966971875538e-07 1.24774329909228e-07
5.00006936676229e-05 6.1462981877836e-15 4.87600427872573e-15 0.000346833793742458 1.18799555091566 1.37628049225523e-07 1.26783455851477e-07
5.00007210511635e-05 5.6371351582847e-15 -2.4709975356686e-15 0.000360525564078928 1.18799555256783 1.37008374999777e-07 1.27029649514284e-07
5.00007600638452e-05 5.67401310917005e-15 5.7714024976647e-16 0.000380031904870789 1.18799555092763 1.34003813289687e-07 1.25282402944684e-07
5.0000791734611e-05 5.57475934393685e-15 -3.17207990165296e-15 0.000395867287814685 1.18799554894134 1.33481857470578e-07 1.24455363195876e-07
5.00008276320718e-05 6.02901418264865e-15 3.75872833503562e-15 0.000413816018202856 1.18799554934919 1.35407577446682e-07 1.25373173708412e-07
5.00008772955853e-05 5.68996007025215e-15 -2.01823664136217e-15 0.000438647774979499 1.18799555140763 1.36437318786334e-07 1.26427719612956e-07
5.00009156489227e-05 5.77887961344537e-15 1.54549964910081e-15 0.000457824443653778 1.18799555104656 1.34912307015029e-07 1.25687435655679e-07
5.00009613901825e-05 5.60030654066825e-15 -2.90540075860223e-15 0.000480695073551036 1.187995549557 1.34198155047234e-07 1.24935933322277e-07
5.00010050676033e-05 5.97347893520052e-15 3.27616268392878e-15 0.000502533783924141 1.18799554988118 1.35435077678204e-07 1.25546118723517e-07
5.00010597998841e-05 5.70228147729844e-15 -2.36761043153269e-15 0.000529899924362997 1.18799555084361 1.36225805711613e-07 1.26333106698318e-07
5.00011118865329e-05 5.84384850870511e-15 2.04420040132353e-15 0.000555943248758525 1.1879955507705 1.34742550689941e-07 1.25471934109596e-07
5.0001178836989e-05 5.57121942930527e-15 -2.70689630611236e-15 0.00058941847682417 1.18799554967818 1.34533006628692e-07 1.25063528835328e-07
5.00012412388007e-05 5.99262791018407e-15 3.18704191241364e-15 0.000620619382664883 1.18799555034695 1.35591222134457e-07 1.2574294877054e-07
5.00013381876075e-05 5.54055350355585e-15 -3.04573479943279e-15 0.000669093786051257 1.18799555066236 1.35056465930238e-07 1.2561956664281e-07
5.00014211936775e-05 5.93929328335456e-15 2.62241139626866e-15 0.000710596821057236 1.18799554981432 1.34783839259892e-07 1.25264920089434e-07
5.00015102649408e-05 5.62849244670069e-15 -2.25937242025336e-15 0.000755132452688332 1.18799555053542 1.35604455721963e-07 1.25819414105606e-07
5.0001674524395e-05 5.88881360278761e-15 2.17199476926785e-15 0.000837262179800536 1.18799555022229 1.34781155191364e-07 1.25397043969591e-07
5.00018204628893e-05 5.63798520262904e-15 -2.18808697142787e-15 0.000910231426964743 1.18799555010714 1.35325838247488e-07 1.25582561027439e-07
5.00019702464891e-05 5.90134072728664e-15 2.29945465368301e-15 0.00098512322683926 1.18799555051999 1.35163610191079e-07 1.25652523217061e-07
5.00021430873883e-05 5.61123200138113e-15 -2.43601413274698e-15 0.00107154367646583 1.18799554992304 1.34975809672163e-07 1.25389711537718e-07
5.00023469521767e-05 5.92926545174784e-15 2.55527219680011e-15 0.00117347607065301 1.18799555048437 1.35385765182214e-07 1.25741620134888e-07
5.00026901237201e-05 5.59069087403435e-15 -2.61771421346253e-15 0.00134506184235974 1.18799554994185 1.34865283861385e-07 1.25362766639493e-07
5.00031328747107e-05 5.94073341954907e-15 2.66010389997208e-15 0.00156643733766519 1.18799555033387 1.35408429824511e-07 1.25722879534292e-07
5.00035938298081e-05 5.58611425392069e-15 -2.69410918495759e-15 0.00179691488636546 1.18799554993164 1.34831820487719e-07 1.25350805920058e-07
5.00041370746972e-05 5.94419830497072e-15 2.71881544966534e-15 0.00206853733089623 1.18799555016597 1.35395788565008e-07 1.25694831308748e-07
5.00047363694021e-05 5.58062576930927e-15 -2.73529067910356e-15 0.00236818468335705 1.18799554989706 1.3484622600296e-07 1.2537863483585e-07
5.00053958494298e-05 5.94695497157481e-15 2.7471130181496e-15 0.00269792469717448 1.18799554998273 1.35349635650768e-07 1.25644236411493e-07
5.00061317909315e-05 5.58081501456434e-15 -2.75388092561094e-15 0.00306589544806306 1.18799554982284 1.34852786776258e-07 1.25382597872288e-07
5.00069464275652e-05 5.94626812827362e-15 2.7585537193411e-15 0.00347321376490179 1.18799554978807 1.35302028098023e-07 1.25601009373605e-07
5.00078574001025e-05 5.57904530541289e-15 -2.7596086396678e-15 0.00392870003358345 1.18799554970809 1.34871682321339e-07 1.25399932754001e-07
5.00088831738158e-05 5.94821478755971e-15 2.75958112402749e-15 0.00444158689019788 1.18799554956524 1.3523397188208e-07 1.25535690404539e-07
5.00100435290818e-05 5.57727899990073e-15 -2.75720585216809e-15 0.0050217645232312 1.18799554953973 1.34884086079993e-07 1.25408372933361e-07
5.00113653960631e-05 5.94812560700778e-15 2.75501639743186e-15 0.005682698013841 1.18799554930356 1.35170745055518e-07 1.25479671152532e-07
5.00128810469299e-05 5.57632386844471e-15 -2.75140425246132e-15 0.00644052344725733 1.18799554930035 1.34879694314031e-07 1.25398762951083e-07
5.00146308266888e-05 5.94782230299731e-15 2.74860325510022e-15 0.00731541332670272 1.18799554897687 1.35103160698819e-07 1.25418994426821e-07
5.00166641401424e-05 5.57561555966747e-15 -2.74487315288316e-15 0.00833207005351224 1.18799554896491 1.3485558926684e-07 1.25369986186383e-07
5.00190410476687e-05 5.9460661181822e-15 2.74233301193992e-15 0.0095205238166758 1.18799554855088 1.35032140850593e-07 1.25356048542561e-07
5.0021836448131e-05 5.57480780347933e-15 -2.73907143374372e-15 0.0109182240478325 1.18799554849391 1.34807171894137e-07 1.2531845783367e-07
5.00251429802012e-05 5.94316727788213e-15 2.73709521907821e-15 0.0125714900829143 1.18799554797151 1.34943880945455e-07 1.2527641397447e-07
5.00290740042674e-05 5.57326675108231e-15 -2.73443303834628e-15 0.0145370021160371 1.18799554782631 1.34729139395303e-07 1.25239767158544e-07
5.00337685702368e-05 5.93951633895057e-15 2.73305731030031e-15 0.0168842851007224 1.18799554716007 1.34829985620621e-07 1.2517129166944e-07
5.00393973220997e-05 5.5692105609816e-15 -2.73094930567344e-15 0.019698661032206 1.18799554686869 1.34611022930405e-07 1.25126119601424e-07
5.00461693541817e-05 5.93303030079344e-15 2.73008632913738e-15 0.0230846770732225 1.18799554599891 1.34672184018614e-07 1.25026173060546e-07
5.00543409636841e-05 5.56033479193016e-15 -2.72843164373581e-15 0.027170481824412 1.18799554547863 1.34431756585546e-07 1.24960024702234e-07
5.0064226209878e-05 5.91999458770627e-15 2.72797518781137e-15 0.0321131049213884 1.18799554431247 1.34445193768733e-07 1.2482216876769e-07
5.00762098904798e-05 5.54097165743897e-15 -2.72665862632351e-15 0.0381049452222841 1.18799554344303 1.34163113429437e-07 1.2472248331654e-07
5.00907634677915e-05 5.88908645312299e-15 2.72650523735425e-15 0.045381733878131 1.18799554183833 1.3410517817254e-07 1.24534441578044e-07
5.0108464484269e-05 5.49173840182334e-15 -2.72542865045703e-15 0.0542322421169505 1.18799554044167 1.33744949631806e-07 1.24385437786141e-07
5.01300204305126e-05 5.80496423168545e-15 2.72550068401827e-15 0.0650102152387447 1.1879955381848 1.33565701006947e-07 1.24135446555213e-07
5.01562979383159e-05 5.34150702601599e-15 -2.72458172909385e-15 0.0781489691404356 1.18799553599722 1.3303541978143e-07 1.23925211912875e-07
5.01883586492697e-05 5.51656385080969e-15 2.72483038380579e-15 0.0941793246173199 1.18799553277059 1.32566328100044e-07 1.23616043627269e-07
5.02275028417497e-05 4.73982233572741e-15 -2.7239844183049e-15 0.113751420857379 1.18799552940817 1.31493008356006e-07 1.23382981184889e-07
5.02753236781009e-05 4.11993641135606e-15 2.72443053980779e-15 0.137661839032974 1.1879955247636 1.29796097861529e-07 1.23168513239544e-07
5.03337713822339e-05 1.0368040868993e-15 -2.72344504805671e-15 0.166885691099477 1.18799551974429 1.25403465737433e-07 1.23450962392087e-07
5.04052389995503e-05 -7.45833066082672e-15 2.72458251090218e-15 0.202619499757487 1.18799551335752 1.12730891770417e-07 1.25357212944904e-07
5.04926405399743e-05 -4.29051268940597e-14 -2.72153743135153e-15 0.246320269968586 1.18799550750798 6.3814386121109e-08 1.34934654282623e-07
5.05193889500825e-05 -6.50658991185474e-14 2.72678675276909e-15 0.259694475022066 1.18799550607674 3.29687143420841e-08 1.41388588711126e-07
5.0572885770299e-05 -1.44244856232706e-13 -2.71740057312331e-15 0.286442885128148 1.18799550582709 -7.57516084551713e-08 1.6389125875751e-07
5.05902695718579e-05 -1.82578342757005e-13 2.72986017159005e-15 0.295134785906569 1.18799550604752 -1.2937291721002e-07 1.74464005400813e-07
5.06250371749757e-05 -2.9042878661316e-13 -2.71783972203389e-15 0.312518587463703 1.18799550682753 -2.89259639159279e-07 1.93489852743179e-07
5.06361571535981e-05 -3.32182766872032e-13 2.7225356750491e-15 0.318078576774641 1.18799550607955 -3.56486961155331e-07 1.96162381840974e-07
5.06583971108428e-05 -4.35597823283752e-13 -2.71473342132192e-15 0.329198555396385 1.18799550573632 -5.20664856161623e-07 2.03500149218255e-07
5.06872674902211e-05 -5.95244637155049e-13 2.73095637570527e-15 0.343633745083401 1.18799550725811 -7.63976894311874e-07 2.26170868256206e-07
5.06946878595332e-05 -6.42164582468101e-13 -2.71215763136332e-15 0.34734392973888 1.18799550804318 -8.35333780184496e-07 2.32378322706084e-07
5.07095285981573e-05 -7.33030905580106e-13 2.71647206009333e-15 0.354764299050696 1.18799550706783 -9.83689211756584e-07 2.35665764803676e-07
5.07147436017163e-05 -7.62451923345028e-13 -2.78191060036156e-15 0.357371800831973 1.18799550346898 -1.04951568672985e-06 2.18393281577135e-07
5.07251736088342e-05 -7.1665197405094e-13 2.72740309656745e-15 0.362586804393685 1.18799549682252 -1.00241449125545e-06 1.90218557738848e-07
5.07285107884176e-05 -5.41733228020903e-13 -2.82916093580232e-15 0.364255394186968 1.18799549342808 -7.30260000819795e-07 1.7316703908405e-07
5.07351851475844e-05 -1.49343808169676e-13 2.72039379822696e-15 0.367592573773547 1.18799548558457 -1.12314418714919e-07 1.37077926485325e-07
5.07440445880291e-05 5.0967444492499e-15 -2.75356358458987e-15 0.372022293997256 1.18799548206371 1.30293116184635e-07 1.21825124163934e-07
5.07463419237878e-05 3.82134792806369e-15 2.75736661760998e-15 0.373170961876533 1.18799548173075 1.28821770504745e-07 1.22421134943219e-07
5.07509365953053e-05 -1.91861617599931e-16 -2.75581391379343e-15 0.375468297635341 1.18799548154406 1.22060609768629e-07 1.22377127973784e-07
5.07584260098252e-05 8.97783926620319e-16 2.75684253303003e-15 0.379213004895196 1.18799548068695 1.24203075243787e-07 1.22719098991087e-07
5.07661942477863e-05 -1.49408060875676e-15 -2.75605429148188e-15 0.383097123875841 1.18799548018149 1.20057296752671e-07 1.22517227301955e-07
5.07789365717424e-05 1.07880036063067e-15 2.75680164973983e-15 0.389468285853791 1.18799547882488 1.24512379509659e-07 1.22753510403332e-07
5.07966136576661e-05 -1.42212329970383e-15 -2.75590799970963e-15 0.398306828815707 1.18799547744163 1.20356020534714e-07 1.22678542666161e-07
5.08214219640637e-05 1.16997969822571e-15 2.75684744917729e-15 0.410710982014407 1.18799547503337 1.25058836158153e-07 1.23160759024954e-07
5.08586229395962e-05 -1.33756258467958e-15 -2.75563655910193e-15 0.429311469780656 1.18799547201698 1.21661978155127e-07 1.23834781108473e-07
5.09124440740115e-05 1.24514418502509e-15 2.7573417225232e-15 0.456222036987954 1.18799546742154 1.28682616331923e-07 1.26664738836786e-07
5.09917868908134e-05 -1.28647915746618e-15 -2.75440297003311e-15 0.495893445388134 1.18799546208259 1.33064230206914e-07 1.3514646930647e-07
