time v(/en) v(/clk) v(/rstb) v(/word) v(/net066) v(/en_out) v(/W0) v(/W1) v(/W2) v(/W3) v(/W4) v(/W5) v(/W6) v(/W7)
0.0 2.5 2.80324752304313e-22 2.80324752304313e-22 3.50405940381082e-23 1.86656227868012e-08 1.86656227764673e-08 2.21073656357451e-08 2.21073656642697e-08 2.2107365588191e-08 2.21073655741506e-08 2.21073655737169e-08 2.21073656315454e-08 2.21073655995074e-08 2.21073655851824e-08
1.1e-07 2.5 3.64291513088232e-22 4.41359440178615e-18 4.2017011143352e-23 1.86659792831686e-08 1.86659792477045e-08 2.21077220166656e-08 2.21077220451905e-08 2.21077219691108e-08 2.21077219550704e-08 2.21077219546367e-08 2.21077220124663e-08 2.21077219804272e-08 2.21077219661022e-08
3.3e-07 2.5 2.72619696922803e-22 4.26246112893752e-18 3.43302894290417e-23 1.86659673400507e-08 1.866596733074e-08 2.21077101150307e-08 2.21077101435552e-08 2.21077100674812e-08 2.21077100534518e-08 2.21077100530181e-08 2.2107710110831e-08 2.21077100787975e-08 2.21077100644725e-08
7.7e-07 2.5 2.7304409963048e-22 3.96825125175584e-18 3.43730908187683e-23 1.8665943715012e-08 1.86659437056854e-08 2.21076864900487e-08 2.21076865185842e-08 2.21076864424854e-08 2.2107686428434e-08 2.21076864280003e-08 2.2107686485849e-08 2.21076864538017e-08 2.21076864394767e-08
1.65e-06 2.5 2.7409714563058e-22 3.4387813168413e-18 3.4472112827599e-23 1.86659012482774e-08 1.86659012388066e-08 2.2107644023109e-08 2.21076440516224e-08 2.21076439755757e-08 2.21076439615462e-08 2.2107643961107e-08 2.21076440189148e-08 2.21076439868865e-08 2.2107643972567e-08
3.41e-06 2.5 2.75680745597466e-22 2.57876785035553e-18 3.46103881649383e-23 1.86658324296448e-08 1.8665832420056e-08 2.21075752044499e-08 2.21075752329859e-08 2.2107575156879e-08 2.21075751428276e-08 2.21075751423994e-08 2.21075752002447e-08 2.21075751681981e-08 2.21075751538704e-08
5e-06 2.5 2.76748983354358e-22 1.98928251480883e-18 3.47131659763642e-23 1.86657854079824e-08 1.86657853982313e-08 2.21075281825764e-08 2.21075282110846e-08 2.21075281350407e-08 2.21075281210113e-08 2.21075281205721e-08 2.21075281783822e-08 2.2107528146357e-08 2.2107528132032e-08
5.00000031417476e-06 2.50000000002411 1.57068568224814e-05 1.57143133906226e-06 6.09326064030162e-11 3.767497475813e-06 1.83941050433502e-06 1.60262202233496e-06 1.6023628965401e-06 1.60241262590634e-06 1.60245640352395e-06 1.60249136470313e-06 1.60251753072276e-06 1.60253464652673e-06 1.59245281711113e-06
5.00000055975101e-06 2.5000000000184 2.79854803686321e-05 2.79911725930024e-06 4.6364218887018e-11 6.34884850970622e-06 3.10453034550872e-06 2.69934802461061e-06 2.69888826121247e-06 2.69891729840535e-06 2.69894548442508e-06 2.69896819560602e-06 2.69898529948908e-06 2.69899624220874e-06 2.68209890841387e-06
5.00000069816407e-06 2.50000000001578 3.49061037570402e-05 3.4910420204668e-06 3.96825615602114e-11 7.51700121631177e-06 3.68776568424079e-06 3.20355375028262e-06 3.20303626618943e-06 3.2030499716734e-06 3.20306538513549e-06 3.20307771016413e-06 3.20308692777854e-06 3.20309248812788e-06 3.18323436677985e-06
5.00000082321564e-06 2.50000000001388 4.11586025023691e-05 4.11624497634317e-06 3.48298942568775e-11 8.43176158927018e-06 4.15108352988749e-06 3.60323991869815e-06 3.60270861760102e-06 3.6027172614745e-06 3.60272864351252e-06 3.60273785220984e-06 3.60274479450554e-06 3.60274880792689e-06 3.58064923082819e-06
5.00000099651655e-06 2.50000000001146 4.9823611980673e-05 4.98263200100333e-06 2.86486170201532e-11 9.51311057593166e-06 4.70874694994933e-06 4.08310290919404e-06 4.08258514324558e-06 4.0825819326254e-06 4.08258303241958e-06 4.08258393701196e-06 4.08258461154191e-06 4.0825843646021e-06 4.05794873545962e-06
5.00000120824174e-06 2.5000000000093 6.04097924962603e-05 6.04118228453833e-06 2.31425932534952e-11 1.05930622431065e-05 5.28084836094261e-06 4.57358601494182e-06 4.57314223503801e-06 4.57313264076407e-06 4.57312778239108e-06 4.57312395903412e-06 4.57312111207458e-06 4.57311847255584e-06 4.54612393104851e-06
5.0000014669523e-06 2.50000000000706 7.33452845493818e-05 7.33463167287583e-06 1.74433879328867e-11 1.16302462815267e-05 5.85188629566317e-06 5.06074668164216e-06 5.06044816183918e-06 5.06042972351735e-06 5.06041613320584e-06 5.06040527637359e-06 5.0603971370726e-06 5.06039092103923e-06 5.03137548189378e-06
5.00000177449692e-06 2.50000000000537 8.87224515563762e-05 8.87229351891655e-06 1.31151790584123e-11 1.25628144491945e-05 6.3944436317374e-06 5.52058171537352e-06 5.52052195241838e-06 5.52050023524385e-06 5.52048199476551e-06 5.52046741922956e-06 5.52045649912504e-06 5.52044841040049e-06 5.48994418144649e-06
5.00000214747955e-06 2.50000000000376 0.000107371559662868 1.07371319181095e-05 9.00028496511558e-12 1.33871446478893e-05 6.91305792956485e-06 5.95650135132277e-06 5.95678806411422e-06 5.9567625366291e-06 5.95673834261995e-06 5.95671896370603e-06 5.95670443514036e-06 5.95669393986666e-06 5.92530832972148e-06
5.00000260517993e-06 2.50000000000274 0.000130256533672407 1.30255980167914e-05 6.4059638393135e-12 1.40996553541362e-05 7.41310650877801e-06 6.37271981986248e-06 6.37348970477933e-06 6.37346582171187e-06 6.37343938018116e-06 6.37341817780138e-06 6.37340228121357e-06 6.37339089959911e-06 6.34181333952894e-06
5.00000318060029e-06 2.50000000000183 0.000159027543460092 1.59026551340584e-05 4.05714268364075e-12 1.47181955589958e-05 7.91445680050174e-06 6.78594066706064e-06 6.78735720531899e-06 6.78733537779344e-06 6.78730596704823e-06 6.78728234532016e-06 6.78726463392882e-06 6.78725209822376e-06 6.75623393322856e-06
5.00000392445659e-06 2.50000000000146 0.000196220330862214 1.96219258894303e-05 3.10577123506219e-12 1.527755507332e-05 8.45042196730271e-06 7.22467392172968e-06 7.22695040408095e-06 7.22693592915329e-06 7.2269068388881e-06 7.22688342768135e-06 7.22686586951354e-06 7.22685351807659e-06 7.19720861272613e-06
5.00000492760262e-06 2.50000000000108 0.000246377635578526 2.4637634005358e-05 2.11829445904744e-12 1.58384121493679e-05 9.07881402023481e-06 7.73908624918944e-06 7.74250409130104e-06 7.74249769208896e-06 7.74246821984937e-06 7.74244445434287e-06 7.74242663295662e-06 7.7424142277394e-06 7.71505242522733e-06
5.00000636680813e-06 2.50000000000108 0.000318337891863151 3.1833665021456e-05 2.10839889445131e-12 1.64902207357269e-05 9.89595997351672e-06 8.41451116090879e-06 8.41948676007778e-06 8.4194934096311e-06 8.41946635513402e-06 8.41944447118496e-06 8.41942805409562e-06 8.41941673951983e-06 8.39546991032673e-06
5.00000864669047e-06 2.50000000000088 0.000432332013567649 4.3233062293847e-05 1.58559598360627e-12 1.73609533243427e-05 1.10764641522099e-05 9.4118329873892e-06 9.41903274488845e-06 9.41905280916804e-06 9.41902747098194e-06 9.41900693296495e-06 9.4189915300955e-06 9.41898110519949e-06 9.40015051340548e-06
5.00001291888073e-06 2.50000000000089 0.000645941502548958 6.4594017003022e-05 1.60746811563851e-12 1.86137495986932e-05 1.29702214622685e-05 1.10836112551624e-05 1.10941948219064e-05 1.10942297730523e-05 1.10942094554424e-05 1.10941929683809e-05 1.10941805983198e-05 1.10941724698029e-05 1.10835991435941e-05
5.00002146326126e-06 2.50000000000058 0.00107316052170409 0.000107315901983333 8.35457212198696e-13 1.98955253289205e-05 1.56169020614298e-05 1.36636766544595e-05 1.36782812243497e-05 1.36783110011387e-05 1.36782960728329e-05 1.36782841206226e-05 1.36782751613307e-05 1.36782695642964e-05 1.36794677420791e-05
5.00003062697796e-06 2.50000000000053 0.00153134632762827 0.000153134489242902 7.51860509646961e-13 1.99183523205838e-05 1.70396629961617e-05 1.53891383019143e-05 1.54047118880202e-05 1.54047164857268e-05 1.54047069185948e-05 1.54046994562588e-05 1.54046938587796e-05 1.54046904921844e-05 1.54126507124135e-05
5.00004050648694e-06 2.50000000000023 0.00202532177413646 0.000202532019746744 4.54745213789896e-14 1.89887542819628e-05 1.73868237882344e-05 1.62510889808806e-05 1.62650140968062e-05 1.62649886640611e-05 1.62649816229867e-05 1.6264976255538e-05 1.62649722336872e-05 1.62649697711144e-05 1.62754534297926e-05
5.00005067053497e-06 2.50000000000019 0.00253352415206543 0.000253352265232067 -9.02112073669349e-15 1.74641279737099e-05 1.68888459784294e-05 1.63064636295602e-05 1.63170131325846e-05 1.63169692292989e-05 1.63169654525963e-05 1.6316962631838e-05 1.63169605110156e-05 1.6316959128245e-05 1.63270064019341e-05
5.00006153773059e-06 2.49999999999991 0.00307688393428298 0.000307688230243739 -6.79876382999153e-13 1.55442330930531e-05 1.57791904854773e-05 1.57014890307531e-05 1.57076939174369e-05 1.57076420690104e-05 1.57076392774398e-05 1.57076371298538e-05 1.57076355194117e-05 1.57076343356265e-05 1.57156674925736e-05
5.00007321161996e-06 2.49999999999988 0.00366057838254772 0.000366057683294497 -6.98342844621739e-13 1.34059949630529e-05 1.424617374751e-05 1.45574810508121e-05 1.45591140075387e-05 1.45590680357394e-05 1.45590673753782e-05 1.45590668068279e-05 1.45590663742528e-05 1.45590659006631e-05 1.45644850168068e-05
5.00008590590886e-06 2.49999999999964 0.00429529283173051 0.000429529116183559 -1.28202287853571e-12 1.12252837829249e-05 1.24741881225107e-05 1.30209490270382e-05 1.3018399545692e-05 1.30183660457893e-05 1.30183654738359e-05 1.3018364905236e-05 1.30183644810744e-05 1.3018364022372e-05 1.30211727853342e-05
5.00009983697516e-06 2.49999999999967 0.00499184612997601 0.000499184455595708 -1.16698270460407e-12 9.20408304378084e-06 1.06667065365189e-05 1.1278014592068e-05 1.1272221898464e-05 1.12722070157807e-05 1.12722078371942e-05 1.12722083571044e-05 1.12722087437538e-05 1.12722088791921e-05 1.12727805102391e-05
5.00011546348278e-06 2.49999999999953 0.0057731715193646 0.00057731698477954 -1.53498206867958e-12 7.5929226364068e-06 9.05785779107364e-06 9.56343790058657e-06 9.55576283829452e-06 9.55576460442772e-06 9.55576497383698e-06 9.55576516743433e-06 9.55576531729333e-06 9.55576537702157e-06 9.55459752055252e-06
5.00013384416394e-06 2.49999999999969 0.00669220556565364 0.000669220401766952 -1.12092748909915e-12 6.71565006436967e-06 7.94059811898054e-06 8.18258074000516e-06 8.17477604816523e-06 8.17479284090652e-06 8.17479420442624e-06 8.17479524453561e-06 8.17479602207246e-06 8.17479656310646e-06 8.17245175120864e-06
5.00015948132156e-06 2.49999999999976 0.00797406346120885 0.00079740618615525 -9.98147947312473e-13 7.28564471140779e-06 7.89714019519968e-06 7.71439001735591e-06 7.70897371222787e-06 7.70899675106525e-06 7.70899739843582e-06 7.70899793781548e-06 7.70899834646886e-06 7.70899868200077e-06 7.70611828956012e-06
5.00018535726516e-06 2.50000000000013 0.00926786063656168 0.000926785919626641 -1.09667148175679e-13 9.50593128016009e-06 9.38407827048599e-06 8.88122741481025e-06 8.87963830443033e-06 8.87965861276895e-06 8.8796599970823e-06 8.8796611482892e-06 8.87966200807952e-06 8.87966263198621e-06 8.87717911596854e-06
5.00020460384685e-06 2.50000000000021 0.0102301897372105 0.00102301882324275 3.62734777122618e-14 1.17807522542427e-05 1.11620203399876e-05 1.05579741146265e-05 1.05591709032379e-05 1.05591834682205e-05 1.05591839288048e-05 1.0559184347733e-05 1.05591846653996e-05 1.0559184914728e-05 1.05573687973769e-05
5.00022197174748e-06 2.50000000000046 0.0110985847623501 0.00110985833885966 6.59727654590749e-13 1.38499688749147e-05 1.29082277200014e-05 1.23386958604103e-05 1.23418334095497e-05 1.23418399432528e-05 1.23418410994086e-05 1.23418420595676e-05 1.23418427755505e-05 1.23418432711657e-05 1.23408333272212e-05
5.00023828275864e-06 2.50000000000044 0.0119141353339524 0.00119141338711423 5.90400957281258e-13 1.55829788294251e-05 1.44609081383279e-05 1.4013089211423e-05 1.40173227755654e-05 1.40173220264547e-05 1.40173222092496e-05 1.40173223857994e-05 1.40173225217507e-05 1.40173226204178e-05 1.40170504923867e-05
5.00025539450446e-06 2.50000000000059 0.0127697226161349 0.00127697212589178 9.83995643412656e-13 1.69583583561059e-05 1.57952408823446e-05 1.55448906657058e-05 1.55494417991802e-05 1.55494365670992e-05 1.55494373812692e-05 1.55494380420085e-05 1.55494385340944e-05 1.55494388542133e-05 1.55498951586204e-05
5.00027436174411e-06 2.50000000000047 0.0137180846101721 0.00137180831421879 6.86860258109372e-13 1.78092472654118e-05 1.67589678413756e-05 1.67725740152815e-05 1.67765391014421e-05 1.67765288600017e-05 1.67765286793132e-05 1.67765285377044e-05 1.67765284356361e-05 1.67765283552859e-05 1.67776071446717e-05
5.00029801914438e-06 2.50000000000049 0.0149009546117167 0.00149009532184555 7.65897083532725e-13 1.7807744960792e-05 1.70800708874196e-05 1.74214997016159e-05 1.74236982659871e-05 1.74236872452183e-05 1.74236876597768e-05 1.74236879742164e-05 1.74236882066582e-05 1.742368833865e-05 1.74252101547028e-05
5.0003154743627e-06 2.50000000000028 0.0157737155362743 0.00157737140179155 2.60680012468622e-13 1.71347626652477e-05 1.67171530575531e-05 1.72593034556392e-05 1.72597566451118e-05 1.72597456202823e-05 1.72597451384003e-05 1.72597447378286e-05 1.725974444153e-05 1.72597442245998e-05 1.72613002991828e-05
5.00034127563945e-06 2.50000000000022 0.0170637793593176 0.0017063777903192 1.46659753840008e-13 1.54537467009253e-05 1.5495538002222e-05 1.62147000558719e-05 1.62125906093794e-05 1.62125844388624e-05 1.62125846663947e-05 1.62125848240677e-05 1.62125849387549e-05 1.62125849952164e-05 1.62138347812156e-05
5.000361012429e-06 2.5 0.0180506188447906 0.00180506172667292 -3.88660765386453e-13 1.39234483339193e-05 1.4247985134116e-05 1.49918819443988e-05 1.49881961838969e-05 1.49881932209358e-05 1.49881926730999e-05 1.49881922210969e-05 1.49881918858236e-05 1.49881916529159e-05 1.49889701311959e-05
5.00038098272073e-06 2.50000000000002 0.0190491334190972 0.00190491319242516 -3.21488359801248e-13 1.2476537620409e-05 1.29808860081744e-05 1.36576051776365e-05 1.36529648467703e-05 1.36529670511684e-05 1.3652967327113e-05 1.36529675322465e-05 1.36529676821882e-05 1.36529677749983e-05 1.36532005931362e-05
5.00040014797418e-06 2.49999999999987 0.0200073961005734 0.00200073945039559 -6.78561285591085e-13 1.14132691566249e-05 1.19667889999591e-05 1.25112856727497e-05 1.25064299211298e-05 1.25064345887203e-05 1.25064341685599e-05 1.25064338311587e-05 1.25064335821293e-05 1.25064334199715e-05 1.25061444239405e-05
5.00042143557898e-06 2.49999999999998 0.0210717763308688 0.00210717748359993 -4.1350378190733e-13 1.07585075000843e-05 1.12387823969561e-05 1.1595118143855e-05 1.1590792326855e-05 1.15908003011879e-05 1.15908007337261e-05 1.15908010781894e-05 1.15908013327914e-05 1.15908015080491e-05 1.15900719776206e-05
5.00044708819793e-06 2.49999999999994 0.0223544072900579 0.00223544057168925 -5.27354108895458e-13 1.0778338905638e-05 1.10306188768945e-05 1.11597689015742e-05 1.11568682339974e-05 1.11568758846321e-05 1.11568756505102e-05 1.11568754768151e-05 1.11568753502046e-05 1.11568752801737e-05 1.11558560323769e-05
5.00046801208978e-06 2.50000000000012 0.0234006018752936 0.00234006004162116 -8.90938345726991e-14 1.13582405189817e-05 1.13692401031002e-05 1.13523926103701e-05 1.13509900609058e-05 1.13509973591651e-05 1.13509979223471e-05 1.13509983815464e-05 1.13509987221549e-05 1.13509989592194e-05 1.13499942869611e-05
5.0004972989474e-06 2.50000000000014 0.0248649447699209 0.00248649432433042 -6.31946329721655e-14 1.2663024366947e-05 1.23543733898603e-05 1.22389276628072e-05 1.22394798622346e-05 1.22394827788811e-05 1.22394826091572e-05 1.22394824895096e-05 1.22394824038957e-05 1.22394823583616e-05 1.22387740154277e-05
5.00052009439182e-06 2.50000000000032 0.0260047169834179 0.00260047155605739 3.62618930190146e-13 1.37744150701205e-05 1.32926576968738e-05 1.31930618577042e-05 1.31946896874661e-05 1.31946902030837e-05 1.31946907085824e-05 1.31946911175383e-05 1.31946914206245e-05 1.31946916250622e-05 1.31943718807348e-05
5.0005432697955e-06 2.50000000000026 0.0271634871796869 0.00271634856720204 2.13193885850791e-13 1.46930925370772e-05 1.4139303999861e-05 1.41255648350287e-05 1.41276619229662e-05 1.4127658659311e-05 1.41276583904388e-05 1.41276581833184e-05 1.41276580319138e-05 1.41276579331985e-05 1.41277487876511e-05
5.00056629679913e-06 2.50000000000036 0.0283148373519717 0.00283148359311616 4.74031292522388e-13 1.52153246041338e-05 1.46971167470596e-05 1.48103273869134e-05 1.48122580683062e-05 1.48122537502072e-05 1.48122541163302e-05 1.48122544039655e-05 1.48122546157219e-05 1.48122547497106e-05 1.48126810443529e-05
5.00059386128067e-06 2.50000000000022 0.0296930614386991 0.00296930599156021 1.34665605164526e-13 1.52460180636793e-05 1.4876755830873e-05 1.51478395714313e-05 1.51489358172045e-05 1.51489300646591e-05 1.51489296489492e-05 1.5148929314323e-05 1.51489290672971e-05 1.5148928897439e-05 1.5149568122249e-05
5.00062269606421e-06 2.50000000000025 0.0311348006048033 0.00311347991539118 2.19756477169583e-13 1.46893851050878e-05 1.45336094047813e-05 1.49268411186789e-05 1.49267247945124e-05 1.49267211113286e-05 1.4926721358003e-05 1.49267215426693e-05 1.49267216772882e-05 1.49267217566691e-05 1.49273385495774e-05
5.00065620210806e-06 2.50000000000006 0.0328101028054464 0.00328101012468837 -2.24944136108275e-13 1.36675123039552e-05 1.3727856845942e-05 1.41659047970114e-05 1.41645610721132e-05 1.41645593358152e-05 1.41645588816238e-05 1.41645585152589e-05 1.4164558244444e-05 1.41645580615279e-05 1.41649010965684e-05
5.00068318833027e-06 2.50000000000012 0.0341594139052813 0.00341594124282871 -8.01287646456935e-14 1.28748282569931e-05 1.30278033688472e-05 1.34241850847271e-05 1.34223325462282e-05 1.34223340575589e-05 1.34223343451554e-05 1.34223345669501e-05 1.3422334729251e-05 1.34223348340329e-05 1.34223692547353e-05
5.00071013047138e-06 2.50000000000001 0.0355065209710659 0.00355065194041616 -3.5865120954973e-13 1.23702266243723e-05 1.25209249024907e-05 1.28288421694275e-05 1.28270337073624e-05 1.28270360853054e-05 1.28270357226564e-05 1.28270354368111e-05 1.28270352265619e-05 1.28270350911255e-05 1.28267939734196e-05
5.00073864673237e-06 2.50000000000013 0.0369323340114517 0.00369323325403091 -6.06505061869851e-14 1.22634506310786e-05 1.23257689750431e-05 1.25261976748295e-05 1.25249408591275e-05 1.25249447032806e-05 1.25249450928677e-05 1.25249454040378e-05 1.25249456333881e-05 1.25249457885248e-05 1.25245357841851e-05
5.00077964365891e-06 2.5000000000001 0.0389821803508517 0.00389821788047496 -1.62684100159187e-13 1.27515098583243e-05 1.2624090968911e-05 1.27170378754768e-05 1.27169314824431e-05 1.27169333833984e-05 1.27169331088093e-05 1.27169328987488e-05 1.27169327455976e-05 1.2716932650564e-05 1.27165477396406e-05
5.0008192442733e-06 2.50000000000025 0.0409622110628689 0.00409622096167534 2.24278974509639e-13 1.35324000729559e-05 1.32601978803199e-05 1.334187793215e-05 1.33426500594752e-05 1.33426505646804e-05 1.33426509743639e-05 1.33426513017591e-05 1.33426515432597e-05 1.33426517037765e-05 1.33425107576745e-05
5.00085172355292e-06 2.50000000000018 0.0425861750551794 0.00425861735251062 2.58636201274774e-14 1.40341316206259e-05 1.37294851176636e-05 1.38661799040802e-05 1.38671581841853e-05 1.38671562262558e-05 1.38671559138707e-05 1.38671556690912e-05 1.38671554896827e-05 1.3867155371615e-05 1.38672512699451e-05
5.00088348908767e-06 2.50000000000027 0.0441744517834088 0.0044174450332476 2.58130138715469e-13 1.41994841209598e-05 1.39415770555375e-05 1.41558255053173e-05 1.41565372761164e-05 1.41565353954483e-05 1.41565357020453e-05 1.41565359410913e-05 1.41565361163238e-05 1.41565362275383e-05 1.41567838538158e-05
5.00092055067492e-06 2.50000000000013 0.0460275311560011 0.0046027529611865 -7.58000404571486e-14 1.39704468800155e-05 1.38239566069028e-05 1.4112626138085e-05 1.41127022093666e-05 1.41126999475705e-05 1.41126995741622e-05 1.41126992760289e-05 1.41126990566451e-05 1.41126989095521e-05 1.41129757003312e-05
5.00095302498867e-06 2.50000000000019 0.0476512468331185 0.00476512453645858 9.4543560023636e-14 1.35501335556528e-05 1.34972520189137e-05 1.38104817289371e-05 1.3810013136356e-05 1.38100127822294e-05 1.38100130625767e-05 1.38100132791433e-05 1.38100134375124e-05 1.38100135381082e-05 1.381018091875e-05
